
T279C 000:317 SEGGER J-Link V4.98e Log File (0000ms, 0269ms total)
T279C 000:317 DLL Compiled: May  5 2015 11:00:52 (0000ms, 0269ms total)
T279C 000:317 Logging started @ 2015-07-31 20:39 (0000ms, 0269ms total)
T279C 000:317 JLINK_SetWarnOutHandler(...) (0000ms, 0269ms total)
T279C 000:317 JLINK_OpenEx(...)
Firmware: J-Link V9 compiled May 22 2015 17:20:50
Hardware: V9.30
S/N: 269301230
OEM: SEGGER-EDU
Feature(s): FlashBP, GDB  returns O.K. (0269ms, 0538ms total)
T279C 000:586 JLINK_SetErrorOutHandler(...) (0000ms, 0538ms total)
T279C 000:586 JLINK_ExecCommand("ProjectFile = "C:\Users\Josie\Documents\OnPersonDevice_Keil\I2C_Fall_arrays\JLinkSettings.ini"", ...)  returns 0x00 (0001ms, 0539ms total)
T279C 000:587 JLINK_ExecCommand("Device = MKL25Z64xxx4", ...)Device "MKL25Z64XXX4" selected.  returns 0x00 (0004ms, 0543ms total)
T279C 000:591 JLINK_ExecCommand("DisableConnectionTimeout", ...)  returns 0x01 (0000ms, 0543ms total)
T279C 000:591 JLINK_GetHardwareVersion()  returns 0x16B48 (0000ms, 0543ms total)
T279C 000:591 JLINK_GetDLLVersion()  returns 49805 (0000ms, 0543ms total)
T279C 000:595 JLINK_GetDLLVersion()  returns 49805 (0000ms, 0543ms total)
T279C 000:595 JLINK_GetCompileDateTime() (0000ms, 0543ms total)
T279C 000:596 JLINK_GetFirmwareString(...) (0000ms, 0543ms total)
T279C 000:599 JLINK_GetHardwareVersion()  returns 0x16B48 (0000ms, 0543ms total)
T279C 000:603 JLINK_TIF_Select(JLINKARM_TIF_SWD)  returns 0x00 (0001ms, 0544ms total)
T279C 000:604 JLINK_SetSpeed(1000) (0001ms, 0545ms total)
T279C 000:605 JLINK_GetId() >0x108 TIF>Found SWD-DP with ID 0x0BC11477 >0x0D TIF> >0x28 TIF> >0x0D TIF> >0x28 TIF> >0x0D TIF> >0x21 TIF> >0x0D TIF> >0x28 TIF> >0x0D TIF> >0x21 TIF> >0x0D TIF> >0x21 TIF> >0x0D TIF> >0x21 TIF> >0x0D TIF> >0x21 TIF> >0x0D TIF> >0x21 TIF> >0x0D TIF> >0x21 TIF> >0x0D TIF> >0x21 TIF> >0x0D TIF> >0x21 TIF> >0x0D TIF> >0x21 TIF> >0x0D TIF> >0x21 TIF> >0x0D TIF> >0x28 TIF> >0x0D TIF> >0x28 TIF> >0x0D TIF> >0x28 TIF> >0x0D TIF> >0x28 TIF> >0x0D TIF> >0x28 TIF> >0x0D TIF>
 >0x28 TIF> >0x0D TIF> >0x28 TIF> >0x0D TIF> >0x21 TIF> >0x0D TIF> >0x21 TIF> >0x0D TIF> >0x28 TIF> >0x108 TIF>Found SWD-DP with ID 0x0BC11477 >0x0D TIF> >0x21 TIF> >0x0D TIF> >0x28 TIF> >0x0D TIF> >0x28 TIF> >0x0D TIF> >0x21 TIF> >0x0D TIF> >0x28 TIF> >0x0D TIF> >0x21 TIF> >0x0D TIF> >0x21 TIF> >0x0D TIF> >0x21 TIF> >0x0D TIF> >0x28 TIF> >0x0D TIF> >0x28 TIF> >0x0D TIF> >0x28 TIF> >0x0D TIF> >0x21 TIF> >0x0D TIF> >0x21 TIF> >0x0D TIF> >0x28 TIF> >0x0D TIF> >0x21 TIF> >0x0D TIF> >0x21 TIF> >0x0D TIF>
 >0x21 TIF> >0x0D TIF> >0x21 TIF> >0x0D TIF> >0x21 TIF> >0x0D TIF> >0x28 TIF> >0x0D TIF> >0x21 TIF> >0x0D TIF> >0x21 TIF> >0x0D TIF> >0x28 TIF> >0x0D TIF> >0x21 TIF> >0x0D TIF> >0x21 TIF> >0x0D TIF> >0x21 TIF> >0x0D TIF> >0x21 TIF> >0x0D TIF> >0x21 TIF> >0x0D TIF> >0x28 TIF> >0x0D TIF> >0x21 TIF> >0x0D TIF> >0x21 TIF> >0x0D TIF> >0x21 TIF> >0x0D TIF> >0x28 TIF> >0x0D TIF> >0x28 TIF> >0x0D TIF> >0x21 TIF> >0x0D TIF> >0x28 TIF> >0x0D TIF> >0x28 TIF> >0x0D TIF> >0x28 TIF> >0x0D TIF> >0x21 TIF> >0x0D TIF>
 >0x21 TIF> >0x0D TIF> >0x28 TIF> >0x0D TIF> >0x21 TIF> >0x0D TIF> >0x21 TIF>Found Cortex-M0 r0p0, Little endian. -- CPU_WriteMem(4 bytes @ 0xE0002000) -- CPU_ReadMem(4 bytes @ 0xE000EDF0) -- CPU_ReadMem(4 bytes @ 0xE0002000)FPUnit: 2 code (BP) slots and 0 literal slots -- CPU_ReadMem(4 bytes @ 0xE000EDFC) -- CPU_ReadMem(4 bytes @ 0xE0001000) -- CPU_WriteMem(4 bytes @ 0xE0001000)CoreSight components:ROMTbl 0 @ F0002000 -- CPU_ReadMem(16 bytes @ 0xF0002000) -- CPU_ReadMem(16 bytes @ 0xF0000FF0)
 -- CPU_ReadMem(16 bytes @ 0xF0000FE0)ROMTbl 0 [0]: FFFFE000, CID: B105900D, PID: 000BB932 MTB-M0+ -- CPU_ReadMem(16 bytes @ 0xF0001FF0) -- CPU_ReadMem(16 bytes @ 0xF0001FE0)ROMTbl 0 [1]: FFFFF000, CID: B105900D, PID: 0008E000 MTBDWT -- CPU_ReadMem(16 bytes @ 0xE00FFFF0) -- CPU_ReadMem(16 bytes @ 0xE00FFFE0)ROMTbl 0 [2]: F00FD000, CID: B105100D, PID: 000BB4C0 ROM TableROMTbl 1 @ E00FF000 -- CPU_ReadMem(16 bytes @ 0xE00FF000) -- CPU_ReadMem(16 bytes @ 0xE000EFF0) -- CPU_ReadMem(16 bytes @ 0xE000EFE0)
ROMTbl 1 [0]: FFF0F000, CID: B105E00D, PID: 000BB008 SCS -- CPU_ReadMem(16 bytes @ 0xE0001FF0) -- CPU_ReadMem(16 bytes @ 0xE0001FE0)ROMTbl 1 [1]: FFF02000, CID: B105E00D, PID: 000BB00A DWT -- CPU_ReadMem(16 bytes @ 0xE0002FF0) -- CPU_ReadMem(16 bytes @ 0xE0002FE0)ROMTbl 1 [2]: FFF03000, CID: B105E00D, PID: 000BB00B FPB >0x0D TIF> >0x21 TIF>  returns 0x0BC11477 (0078ms, 0623ms total)
T279C 000:683 JLINK_GetDLLVersion()  returns 49805 (0000ms, 0623ms total)
T279C 000:683 JLINK_CORE_GetFound()  returns 0x60000FF (0000ms, 0623ms total)
T279C 000:683 JLINK_GetDebugInfo(0x100) -- Value=0xF0002003  returns 0x00 (0000ms, 0623ms total)
T279C 000:683 JLINK_ReadMem (0xF0002000, 0x0020 Bytes, ...) -- CPU is running -- CPU_ReadMem(32 bytes @ 0xF0002000) - Data: 03 E0 FF FF 03 F0 FF FF 03 D0 0F F0 00 00 00 00 ...  returns 0x00 (0002ms, 0625ms total)
T279C 000:685 JLINK_ReadMem (0xF0000FF0, 0x0010 Bytes, ...) -- CPU is running -- CPU_ReadMem(16 bytes @ 0xF0000FF0) - Data: 0D 00 00 00 90 00 00 00 05 00 00 00 B1 00 00 00  returns 0x00 (0000ms, 0625ms total)
T279C 000:685 JLINK_ReadMem (0xF0000FD0, 0x0020 Bytes, ...) -- CPU is running -- CPU_ReadMem(32 bytes @ 0xF0000FD0) - Data: 04 00 00 00 00 00 00 00 00 00 00 00 00 00 00 00 ...  returns 0x00 (0002ms, 0627ms total)
T279C 000:687 JLINK_ReadMem (0xF0001FF0, 0x0010 Bytes, ...) -- CPU is running -- CPU_ReadMem(16 bytes @ 0xF0001FF0) - Data: 0D 00 00 00 90 00 00 00 05 00 00 00 B1 00 00 00  returns 0x00 (0000ms, 0627ms total)
T279C 000:687 JLINK_ReadMem (0xF0001FD0, 0x0020 Bytes, ...) -- CPU is running -- CPU_ReadMem(32 bytes @ 0xF0001FD0) - Data: 00 00 00 00 00 00 00 00 00 00 00 00 00 00 00 00 ...  returns 0x00 (0002ms, 0629ms total)
T279C 000:689 JLINK_ReadMem (0xE00FFFF0, 0x0010 Bytes, ...) -- CPU is running -- CPU_ReadMem(16 bytes @ 0xE00FFFF0) - Data: 0D 00 00 00 10 00 00 00 05 00 00 00 B1 00 00 00  returns 0x00 (0001ms, 0630ms total)
T279C 000:690 JLINK_ReadMem (0xE00FFFD0, 0x0020 Bytes, ...) -- CPU is running -- CPU_ReadMem(32 bytes @ 0xE00FFFD0) - Data: 04 00 00 00 00 00 00 00 00 00 00 00 00 00 00 00 ...  returns 0x00 (0001ms, 0631ms total)
T279C 000:691 JLINK_ReadMem (0xE00FF000, 0x0020 Bytes, ...) -- CPU is running -- CPU_ReadMem(32 bytes @ 0xE00FF000) - Data: 03 F0 F0 FF 03 20 F0 FF 03 30 F0 FF 00 00 00 00 ...  returns 0x00 (0001ms, 0632ms total)
T279C 000:692 JLINK_ReadMem (0xE000EFF0, 0x0010 Bytes, ...) -- CPU is running -- CPU_ReadMem(16 bytes @ 0xE000EFF0) - Data: 0D 00 00 00 E0 00 00 00 05 00 00 00 B1 00 00 00  returns 0x00 (0001ms, 0633ms total)
T279C 000:693 JLINK_ReadMem (0xE000EFD0, 0x0020 Bytes, ...) -- CPU is running -- CPU_ReadMem(32 bytes @ 0xE000EFD0) - Data: 04 00 00 00 00 00 00 00 00 00 00 00 00 00 00 00 ...  returns 0x00 (0001ms, 0634ms total)
T279C 000:694 JLINK_ReadMem (0xE0001FF0, 0x0010 Bytes, ...) -- CPU is running -- CPU_ReadMem(16 bytes @ 0xE0001FF0) - Data: 0D 00 00 00 E0 00 00 00 05 00 00 00 B1 00 00 00  returns 0x00 (0001ms, 0635ms total)
T279C 000:695 JLINK_ReadMem (0xE0001FD0, 0x0020 Bytes, ...) -- CPU is running -- CPU_ReadMem(32 bytes @ 0xE0001FD0) - Data: 04 00 00 00 00 00 00 00 00 00 00 00 00 00 00 00 ...  returns 0x00 (0001ms, 0636ms total)
T279C 000:696 JLINK_ReadMem (0xE0002FF0, 0x0010 Bytes, ...) -- CPU is running -- CPU_ReadMem(16 bytes @ 0xE0002FF0) - Data: 0D 00 00 00 E0 00 00 00 05 00 00 00 B1 00 00 00  returns 0x00 (0001ms, 0637ms total)
T279C 000:697 JLINK_ReadMem (0xE0002FD0, 0x0020 Bytes, ...) -- CPU is running -- CPU_ReadMem(32 bytes @ 0xE0002FD0) - Data: 04 00 00 00 00 00 00 00 00 00 00 00 00 00 00 00 ...  returns 0x00 (0001ms, 0638ms total)
T279C 000:698 JLINK_ReadMemU32(0xE000ED00, 0x0001 Items, ...) -- CPU is running -- CPU_ReadMem(4 bytes @ 0xE000ED00) - Data: 00 C6 0C 41  returns 0x01 (0001ms, 0639ms total)
T279C 000:699 JLINK_SetResetType(JLINKARM_RESET_TYPE_ADI)  returns JLINKARM_RESET_TYPE_NORMAL (0000ms, 0639ms total)
T279C 000:699 JLINK_Reset() -- CPU is running -- CPU_WriteMem(4 bytes @ 0xE000EDF0) -- CPU is running -- CPU_WriteMem(4 bytes @ 0xE000EDFC) -- CPU_WriteMem(4 bytes @ 0xE000EDF0) -- CPU_WriteMem(4 bytes @ 0xE000EDFC) -- CPU_ReadMem(4 bytes @ 0xE000EDF0) -- CPU_WriteMem(4 bytes @ 0xE000EDFC) -- CPU_WriteMem(4 bytes @ 0xE000ED0C) -- CPU_ReadMem(4 bytes @ 0xE000EDF0) -- CPU_ReadMem(4 bytes @ 0xE000EDF0) -- CPU_WriteMem(4 bytes @ 0xE000EDF0) -- CPU_WriteMem(4 bytes @ 0xE000EDFC) -- CPU is running
 -- CPU_ReadMem(4 bytes @ 0xE000EDF0) -- CPU_WriteMem(4 bytes @ 0xE0002000) -- CPU_ReadMem(4 bytes @ 0xE000EDFC) -- CPU_ReadMem(4 bytes @ 0xE0001000) -- CPU_WriteMem(4 bytes @ 0xE0001000) (0166ms, 0805ms total)
T279C 000:865 JLINK_ReadReg(R15 (PC))  returns 0x0000031C (0000ms, 0805ms total)
T279C 000:865 JLINK_ReadReg(XPSR)  returns 0x81000000 (0000ms, 0805ms total)
T279C 000:865 JLINK_Halt()  returns 0x00 (0000ms, 0805ms total)
T279C 000:865 JLINK_IsHalted()  returns TRUE (0000ms, 0805ms total)
T279C 000:865 JLINK_ReadMemU32(0xE000EDF0, 0x0001 Items, ...) -- CPU_ReadMem(4 bytes @ 0xE000EDF0) - Data: 03 00 03 01  returns 0x01 (0001ms, 0806ms total)
T279C 000:866 JLINK_WriteU32(0xE000EDF0, 0xA05F0003) -- CPU_WriteMem(4 bytes @ 0xE000EDF0)  returns 0x00 (0000ms, 0806ms total)
T279C 000:866 JLINK_WriteU32(0xE000EDFC, 0x01000000) -- CPU_WriteMem(4 bytes @ 0xE000EDFC)  returns 0x00 (0001ms, 0807ms total)
T279C 000:868 JLINK_GetHWStatus(...)  returns 0x00 (0000ms, 0807ms total)
T279C 000:868 JLINK_GetNumBPUnits(Type = 0xFFFFFF00)  returns 0x02 (0000ms, 0807ms total)
T279C 000:868 JLINK_GetNumBPUnits(Type = 0xF0)  returns 0x2000 (0000ms, 0807ms total)
T279C 000:868 JLINK_GetNumWPUnits()  returns 0x02 (0000ms, 0807ms total)
T279C 000:869 JLINK_GetSpeed()  returns 0x3E8 (0000ms, 0807ms total)
T279C 000:869 JLINK_ReadMemU32(0xE000E004, 0x0001 Items, ...) -- CPU_ReadMem(4 bytes @ 0xE000E004) - Data: 00 00 00 00  returns 0x01 (0001ms, 0808ms total)
T279C 000:870 JLINK_ReadReg(R15 (PC))  returns 0x0000031C (0000ms, 0808ms total)
T279C 000:870 JLINK_ReadReg(XPSR)  returns 0x81000000 (0000ms, 0808ms total)
T279C 000:941 JLINK_SetResetType(JLINKARM_RESET_TYPE_ADI)  returns JLINKARM_RESET_TYPE_ADI (0000ms, 0808ms total)
T279C 000:941 JLINK_Reset() -- CPU_WriteMem(4 bytes @ 0xE000EDF0) -- CPU_WriteMem(4 bytes @ 0xE000EDFC) -- CPU_WriteMem(4 bytes @ 0xE000EDF0) -- CPU_WriteMem(4 bytes @ 0xE000EDFC) -- CPU_ReadMem(4 bytes @ 0xE000EDF0) -- CPU_WriteMem(4 bytes @ 0xE000EDFC) -- CPU_WriteMem(4 bytes @ 0xE000ED0C) -- CPU_ReadMem(4 bytes @ 0xE000EDF0) -- CPU_ReadMem(4 bytes @ 0xE000EDF0) -- CPU_WriteMem(4 bytes @ 0xE000EDF0) -- CPU_WriteMem(4 bytes @ 0xE000EDFC) -- CPU is running -- CPU_ReadMem(4 bytes @ 0xE000EDF0)
 -- CPU_WriteMem(4 bytes @ 0xE0002000) -- CPU_ReadMem(4 bytes @ 0xE000EDFC) -- CPU_ReadMem(4 bytes @ 0xE0001000) -- CPU_WriteMem(4 bytes @ 0xE0001000) (0166ms, 0974ms total)
T279C 001:107 JLINK_ReadReg(R15 (PC))  returns 0x0000031C (0001ms, 0975ms total)
T279C 001:108 JLINK_ReadReg(XPSR)  returns 0x81000000 (0000ms, 0975ms total)
T279C 001:109 JLINK_ReadMem (0x0000031C, 0x003C Bytes, ...) -- CPU_ReadMem(128 bytes @ 0x00000300) -- Updating C cache (128 bytes @ 0x00000300) -- Read from C cache (60 bytes @ 0x0000031C) - Data: 07 48 80 47 07 48 00 47 FE E7 FE E7 FE E7 FE E7 ...  returns 0x00 (0002ms, 0977ms total)
T2BD0 002:282 JLINK_SetBPEx(Addr = 0x0000091C, Type = 0xFFFFFFF2)  returns 0x00000001 (0001ms, 0979ms total)
T2BD0 002:283 JLINK_SetBPEx(Addr = 0x00000906, Type = 0xFFFFFFF2)  returns 0x00000002 (0000ms, 0979ms total)
T2BD0 002:283 JLINK_Go() -- CPU_WriteMem(4 bytes @ 0xE0002000) -- CPU_WriteMem(4 bytes @ 0xE0002000) -- CPU_ReadMem(4 bytes @ 0xE0001000) -- CPU_WriteMem(4 bytes @ 0xE0001000) -- CPU_WriteMem(4 bytes @ 0xE0002008) -- CPU_WriteMem(4 bytes @ 0xE000200C) -- CPU_WriteMem(4 bytes @ 0xE0001004) (0006ms, 0985ms total)
T2BD0 002:390 JLINK_IsHalted()  returns TRUE (0004ms, 0989ms total)
T2BD0 002:394 JLINK_Halt()  returns 0x00 (0000ms, 0985ms total)
T2BD0 002:394 JLINK_IsHalted()  returns TRUE (0000ms, 0985ms total)
T2BD0 002:394 JLINK_IsHalted()  returns TRUE (0000ms, 0985ms total)
T2BD0 002:394 JLINK_IsHalted()  returns TRUE (0000ms, 0985ms total)
T2BD0 002:394 JLINK_ReadReg(R15 (PC))  returns 0x0000091C (0000ms, 0985ms total)
T2BD0 002:394 JLINK_ReadReg(XPSR)  returns 0x01000000 (0000ms, 0985ms total)
T2BD0 002:394 JLINK_ClrBPEx(BPHandle = 0x00000001)  returns 0x00 (0000ms, 0985ms total)
T2BD0 002:394 JLINK_ClrBPEx(BPHandle = 0x00000002)  returns 0x00 (0000ms, 0985ms total)
T2BD0 002:394 JLINK_ReadMemU32(0xE000ED30, 0x0001 Items, ...) -- CPU_ReadMem(4 bytes @ 0xE000ED30) - Data: 03 00 00 00  returns 0x01 (0001ms, 0986ms total)
T2BD0 002:395 JLINK_ReadMemU32(0xE0001028, 0x0001 Items, ...) -- CPU_ReadMem(4 bytes @ 0xE0001028) - Data: 00 00 00 00  returns 0x01 (0001ms, 0987ms total)
T2BD0 002:396 JLINK_ReadMemU32(0xE0001038, 0x0001 Items, ...) -- CPU_ReadMem(4 bytes @ 0xE0001038) - Data: 00 00 00 00  returns 0x01 (0001ms, 0988ms total)
T2BD0 002:397 JLINK_ReadReg(R0)  returns 0x1FFFF930 (0000ms, 0988ms total)
T2BD0 002:397 JLINK_ReadReg(R1)  returns 0x1FFFF930 (0000ms, 0988ms total)
T2BD0 002:397 JLINK_ReadReg(R2)  returns 0x1FFFF930 (0000ms, 0988ms total)
T2BD0 002:397 JLINK_ReadReg(R3)  returns 0x1FFFF930 (0000ms, 0988ms total)
T2BD0 002:397 JLINK_ReadReg(R4)  returns 0x000030A8 (0000ms, 0988ms total)
T2BD0 002:397 JLINK_ReadReg(R5)  returns 0x1FFFF8D0 (0000ms, 0988ms total)
T2BD0 002:397 JLINK_ReadReg(R6)  returns 0x00000000 (0000ms, 0988ms total)
T2BD0 002:397 JLINK_ReadReg(R7)  returns 0x00000000 (0000ms, 0988ms total)
T2BD0 002:397 JLINK_ReadReg(R8)  returns 0x00000000 (0000ms, 0988ms total)
T2BD0 002:397 JLINK_ReadReg(R9)  returns 0x20000618 (0000ms, 0988ms total)
T2BD0 002:397 JLINK_ReadReg(R10)  returns 0x000030A8 (0000ms, 0988ms total)
T2BD0 002:397 JLINK_ReadReg(R11)  returns 0x000030A8 (0000ms, 0988ms total)
T2BD0 002:397 JLINK_ReadReg(R12)  returns 0x000003F4 (0000ms, 0988ms total)
T2BD0 002:397 JLINK_ReadReg(R13 (SP))  returns 0x1FFFFD30 (0000ms, 0988ms total)
T2BD0 002:397 JLINK_ReadReg(R14)  returns 0x00000153 (0000ms, 0988ms total)
T2BD0 002:397 JLINK_ReadReg(R15 (PC))  returns 0x0000091C (0000ms, 0988ms total)
T2BD0 002:397 JLINK_ReadReg(XPSR)  returns 0x01000000 (0000ms, 0988ms total)
T2BD0 002:397 JLINK_ReadReg(MSP)  returns 0x1FFFFD30 (0000ms, 0988ms total)
T2BD0 002:397 JLINK_ReadReg(PSP)  returns 0x20000800 (0000ms, 0988ms total)
T2BD0 002:397 JLINK_ReadReg(CFBP)  returns 0x00000000 (0000ms, 0988ms total)
T279C 002:397 JLINK_ReadMem (0x00000000, 0x0004 Bytes, ...) -- CPU_ReadMem(64 bytes @ 0x00000000) -- Updating C cache (64 bytes @ 0x00000000) -- Read from C cache (4 bytes @ 0x00000000) - Data: 30 FD FF 1F  returns 0x00 (0002ms, 0990ms total)
T279C 002:407 JLINK_ReadMem (0x0000091C, 0x003C Bytes, ...) -- CPU_ReadMem(128 bytes @ 0x00000900) -- Updating C cache (128 bytes @ 0x00000900) -- Read from C cache (60 bytes @ 0x0000091C) - Data: FF F7 4D FC 7D 21 C9 00 65 48 00 68 00 F0 B4 FA ...  returns 0x00 (0003ms, 0993ms total)
T2BD0 004:319 JLINK_SetBPEx(Addr = 0x00000906, Type = 0xFFFFFFF2)  returns 0x00000003 (0000ms, 0993ms total)
T2BD0 004:319 JLINK_Go() -- CPU_WriteMem(4 bytes @ 0xE0002000) -- CPU_ReadMem(4 bytes @ 0xE0001000) -- CPU_WriteMem(4 bytes @ 0xE0001000) -- CPU_WriteMem(4 bytes @ 0xE0002008) -- CPU_WriteMem(4 bytes @ 0xE000200C) (0005ms, 0998ms total)
T2BD0 004:424 JLINK_IsHalted()  returns TRUE (0004ms, 1002ms total)
T2BD0 004:428 JLINK_Halt()  returns 0x00 (0000ms, 0998ms total)
T2BD0 004:428 JLINK_IsHalted()  returns TRUE (0000ms, 0998ms total)
T2BD0 004:428 JLINK_IsHalted()  returns TRUE (0000ms, 0998ms total)
T2BD0 004:428 JLINK_IsHalted()  returns TRUE (0000ms, 0998ms total)
T2BD0 004:428 JLINK_ReadReg(R15 (PC))  returns 0x00000906 (0000ms, 0998ms total)
T2BD0 004:428 JLINK_ReadReg(XPSR)  returns 0x81000000 (0000ms, 0998ms total)
T2BD0 004:428 JLINK_ClrBPEx(BPHandle = 0x00000003)  returns 0x00 (0000ms, 0998ms total)
T2BD0 004:428 JLINK_ReadMemU32(0xE000ED30, 0x0001 Items, ...) -- CPU_ReadMem(4 bytes @ 0xE000ED30) - Data: 03 00 00 00  returns 0x01 (0001ms, 0999ms total)
T2BD0 004:429 JLINK_ReadMemU32(0xE0001028, 0x0001 Items, ...) -- CPU_ReadMem(4 bytes @ 0xE0001028) - Data: 00 00 00 00  returns 0x01 (0001ms, 1000ms total)
T2BD0 004:430 JLINK_ReadMemU32(0xE0001038, 0x0001 Items, ...) -- CPU_ReadMem(4 bytes @ 0xE0001038) - Data: 00 00 00 00  returns 0x01 (0001ms, 1001ms total)
T2BD0 004:431 JLINK_ReadReg(R0)  returns 0x3F815B7E (0001ms, 1002ms total)
T2BD0 004:432 JLINK_ReadReg(R1)  returns 0x3E51EB85 (0000ms, 1002ms total)
T2BD0 004:432 JLINK_ReadReg(R2)  returns 0x3FD1FBFF (0000ms, 1002ms total)
T2BD0 004:432 JLINK_ReadReg(R3)  returns 0x00800000 (0000ms, 1002ms total)
T2BD0 004:432 JLINK_ReadReg(R4)  returns 0x40000000 (0000ms, 1002ms total)
T2BD0 004:432 JLINK_ReadReg(R5)  returns 0x3E984F63 (0000ms, 1002ms total)
T2BD0 004:432 JLINK_ReadReg(R6)  returns 0x29DC2900 (0000ms, 1002ms total)
T2BD0 004:432 JLINK_ReadReg(R7)  returns 0x00000000 (0000ms, 1002ms total)
T2BD0 004:432 JLINK_ReadReg(R8)  returns 0x00000000 (0000ms, 1002ms total)
T2BD0 004:432 JLINK_ReadReg(R9)  returns 0x20000618 (0000ms, 1002ms total)
T2BD0 004:432 JLINK_ReadReg(R10)  returns 0x000030A8 (0000ms, 1002ms total)
T2BD0 004:432 JLINK_ReadReg(R11)  returns 0x000030A8 (0000ms, 1002ms total)
T2BD0 004:432 JLINK_ReadReg(R12)  returns 0x000003FE (0000ms, 1002ms total)
T2BD0 004:432 JLINK_ReadReg(R13 (SP))  returns 0x1FFFFCD0 (0000ms, 1002ms total)
T2BD0 004:432 JLINK_ReadReg(R14)  returns 0x000008FB (0000ms, 1002ms total)
T2BD0 004:432 JLINK_ReadReg(R15 (PC))  returns 0x00000906 (0000ms, 1002ms total)
T2BD0 004:432 JLINK_ReadReg(XPSR)  returns 0x81000000 (0000ms, 1002ms total)
T2BD0 004:432 JLINK_ReadReg(MSP)  returns 0x1FFFFCD0 (0000ms, 1002ms total)
T2BD0 004:432 JLINK_ReadReg(PSP)  returns 0x20000800 (0000ms, 1002ms total)
T2BD0 004:432 JLINK_ReadReg(CFBP)  returns 0x00000000 (0000ms, 1002ms total)
T279C 004:434 JLINK_ReadMem (0x1FFFFD2C, 0x0004 Bytes, ...) -- CPU_ReadMem(64 bytes @ 0x1FFFFD00) -- Updating C cache (64 bytes @ 0x1FFFFD00) -- Read from C cache (4 bytes @ 0x1FFFFD2C) - Data: F3 09 00 00  returns 0x00 (0002ms, 1004ms total)
T279C 004:436 JLINK_ReadMem (0x1FFFFD1C, 0x0004 Bytes, ...) -- Read from C cache (4 bytes @ 0x1FFFFD1C) - Data: D7 A3 00 00  returns 0x00 (0000ms, 1004ms total)
T279C 004:436 JLINK_ReadMem (0x1FFFFD20, 0x0004 Bytes, ...) -- Read from C cache (4 bytes @ 0x1FFFFD20) - Data: D0 F8 FF 1F  returns 0x00 (0000ms, 1004ms total)
T279C 004:436 JLINK_ReadMem (0x1FFFFD24, 0x0004 Bytes, ...) -- Read from C cache (4 bytes @ 0x1FFFFD24) - Data: 00 00 00 00  returns 0x00 (0000ms, 1004ms total)
T279C 004:436 JLINK_ReadMem (0x1FFFFD28, 0x0004 Bytes, ...) -- Read from C cache (4 bytes @ 0x1FFFFD28) - Data: 00 00 00 00  returns 0x00 (0000ms, 1004ms total)
T279C 004:436 JLINK_ReadMem (0x1FFFFD14, 0x0004 Bytes, ...) -- Read from C cache (4 bytes @ 0x1FFFFD14) - Data: 00 00 00 00  returns 0x00 (0000ms, 1004ms total)
T279C 004:436 JLINK_ReadMem (0x1FFFFD10, 0x0004 Bytes, ...) -- Read from C cache (4 bytes @ 0x1FFFFD10) - Data: 00 00 80 3F  returns 0x00 (0000ms, 1004ms total)
T279C 004:436 JLINK_ReadMem (0x1FFFFD0C, 0x0004 Bytes, ...) -- Read from C cache (4 bytes @ 0x1FFFFD0C) - Data: 00 00 80 7F  returns 0x00 (0000ms, 1004ms total)
T279C 004:436 JLINK_ReadMem (0x1FFFFD08, 0x0004 Bytes, ...) -- Read from C cache (4 bytes @ 0x1FFFFD08) - Data: 63 4F 98 3E  returns 0x00 (0000ms, 1004ms total)
T279C 004:436 JLINK_ReadMem (0x1FFFFD04, 0x0004 Bytes, ...) -- Read from C cache (4 bytes @ 0x1FFFFD04) - Data: 7E 5B 81 3F  returns 0x00 (0000ms, 1004ms total)
T279C 004:436 JLINK_ReadMem (0x1FFFFD00, 0x0004 Bytes, ...) -- Read from C cache (4 bytes @ 0x1FFFFD00) - Data: 7E 5B 81 3F  returns 0x00 (0000ms, 1004ms total)
T279C 004:437 JLINK_ReadMem (0x00000000, 0x0004 Bytes, ...) -- CPU_ReadMem(64 bytes @ 0x00000000) -- Updating C cache (64 bytes @ 0x00000000) -- Read from C cache (4 bytes @ 0x00000000) - Data: 30 FD FF 1F  returns 0x00 (0002ms, 1006ms total)
T279C 004:463 JLINK_ReadMem (0x00000906, 0x0002 Bytes, ...) -- CPU_ReadMem(64 bytes @ 0x00000900) -- Updating C cache (64 bytes @ 0x00000900) -- Read from C cache (2 bytes @ 0x00000906) - Data: 01 20  returns 0x00 (0002ms, 1008ms total)
T279C 004:465 JLINK_ReadMem (0x00000908, 0x003C Bytes, ...) -- CPU_ReadMem(64 bytes @ 0x00000940) -- Updating C cache (64 bytes @ 0x00000940) -- Read from C cache (60 bytes @ 0x00000908) - Data: 11 90 11 98 13 B0 F0 BD 69 48 00 68 40 1C 68 49 ...  returns 0x00 (0002ms, 1010ms total)
T2BD0 005:641 JLINK_Step() -- Read from C cache (2 bytes @ 0x00000906) -- CPU_ReadMem(4 bytes @ 0xE0001004) -- Simulated  returns 0x00 (0002ms, 1012ms total)
T2BD0 005:643 JLINK_ReadReg(R15 (PC))  returns 0x00000908 (0000ms, 1012ms total)
T2BD0 005:643 JLINK_ReadReg(XPSR)  returns 0x01000000 (0000ms, 1012ms total)
T2BD0 005:643 JLINK_SetBPEx(Addr = 0x00000906, Type = 0xFFFFFFF2)  returns 0x00000004 (0000ms, 1012ms total)
T2BD0 005:643 JLINK_Go() -- CPU_WriteMem(4 bytes @ 0xE0002000) -- CPU_ReadMem(4 bytes @ 0xE0001000) -- CPU_WriteMem(4 bytes @ 0xE0001000) -- CPU_WriteMem(4 bytes @ 0xE0001004) (0005ms, 1017ms total)
T2BD0 005:749 JLINK_IsHalted()  returns TRUE (0004ms, 1021ms total)
T2BD0 005:753 JLINK_Halt()  returns 0x00 (0000ms, 1017ms total)
T2BD0 005:753 JLINK_IsHalted()  returns TRUE (0000ms, 1017ms total)
T2BD0 005:753 JLINK_IsHalted()  returns TRUE (0000ms, 1017ms total)
T2BD0 005:753 JLINK_IsHalted()  returns TRUE (0000ms, 1017ms total)
T2BD0 005:753 JLINK_ReadReg(R15 (PC))  returns 0x00000906 (0000ms, 1017ms total)
T2BD0 005:753 JLINK_ReadReg(XPSR)  returns 0x81000000 (0000ms, 1017ms total)
T2BD0 005:753 JLINK_ClrBPEx(BPHandle = 0x00000004)  returns 0x00 (0000ms, 1017ms total)
T2BD0 005:753 JLINK_ReadMemU32(0xE000ED30, 0x0001 Items, ...) -- CPU_ReadMem(4 bytes @ 0xE000ED30) - Data: 03 00 00 00  returns 0x01 (0001ms, 1018ms total)
T2BD0 005:754 JLINK_ReadMemU32(0xE0001028, 0x0001 Items, ...) -- CPU_ReadMem(4 bytes @ 0xE0001028) - Data: 00 00 00 00  returns 0x01 (0001ms, 1019ms total)
T2BD0 005:755 JLINK_ReadMemU32(0xE0001038, 0x0001 Items, ...) -- CPU_ReadMem(4 bytes @ 0xE0001038) - Data: 00 00 00 00  returns 0x01 (0001ms, 1020ms total)
T2BD0 005:756 JLINK_ReadReg(R0)  returns 0x3F86C5B2 (0000ms, 1020ms total)
T2BD0 005:756 JLINK_ReadReg(R1)  returns 0x3E51EB85 (0000ms, 1020ms total)
T2BD0 005:756 JLINK_ReadReg(R2)  returns 0x3FD7EFB7 (0000ms, 1020ms total)
T2BD0 005:756 JLINK_ReadReg(R3)  returns 0x00800000 (0000ms, 1020ms total)
T2BD0 005:756 JLINK_ReadReg(R4)  returns 0x00000000 (0000ms, 1020ms total)
T2BD0 005:756 JLINK_ReadReg(R5)  returns 0x3F17B146 (0000ms, 1020ms total)
T2BD0 005:756 JLINK_ReadReg(R6)  returns 0x75902000 (0000ms, 1020ms total)
T2BD0 005:756 JLINK_ReadReg(R7)  returns 0x00000000 (0000ms, 1020ms total)
T2BD0 005:756 JLINK_ReadReg(R8)  returns 0x00000000 (0000ms, 1020ms total)
T2BD0 005:756 JLINK_ReadReg(R9)  returns 0x20000618 (0000ms, 1020ms total)
T2BD0 005:756 JLINK_ReadReg(R10)  returns 0x000030A8 (0000ms, 1020ms total)
T2BD0 005:756 JLINK_ReadReg(R11)  returns 0x000030A8 (0000ms, 1020ms total)
T2BD0 005:756 JLINK_ReadReg(R12)  returns 0x000003FE (0000ms, 1020ms total)
T2BD0 005:756 JLINK_ReadReg(R13 (SP))  returns 0x1FFFFCD0 (0000ms, 1020ms total)
T2BD0 005:756 JLINK_ReadReg(R14)  returns 0x000008FB (0000ms, 1020ms total)
T2BD0 005:756 JLINK_ReadReg(R15 (PC))  returns 0x00000906 (0000ms, 1020ms total)
T2BD0 005:756 JLINK_ReadReg(XPSR)  returns 0x81000000 (0000ms, 1020ms total)
T2BD0 005:756 JLINK_ReadReg(MSP)  returns 0x1FFFFCD0 (0001ms, 1021ms total)
T2BD0 005:757 JLINK_ReadReg(PSP)  returns 0x20000800 (0000ms, 1021ms total)
T2BD0 005:757 JLINK_ReadReg(CFBP)  returns 0x00000000 (0000ms, 1021ms total)
T279C 005:757 JLINK_ReadMem (0x1FFFFD2C, 0x0004 Bytes, ...) -- CPU_ReadMem(64 bytes @ 0x1FFFFD00) -- Updating C cache (64 bytes @ 0x1FFFFD00) -- Read from C cache (4 bytes @ 0x1FFFFD2C) - Data: F3 09 00 00  returns 0x00 (0002ms, 1023ms total)
T279C 005:759 JLINK_ReadMem (0x1FFFFD1C, 0x0004 Bytes, ...) -- Read from C cache (4 bytes @ 0x1FFFFD1C) - Data: D7 A3 00 00  returns 0x00 (0000ms, 1023ms total)
T279C 005:759 JLINK_ReadMem (0x1FFFFD20, 0x0004 Bytes, ...) -- Read from C cache (4 bytes @ 0x1FFFFD20) - Data: D0 F8 FF 1F  returns 0x00 (0000ms, 1023ms total)
T279C 005:759 JLINK_ReadMem (0x1FFFFD24, 0x0004 Bytes, ...) -- Read from C cache (4 bytes @ 0x1FFFFD24) - Data: 00 00 00 00  returns 0x00 (0000ms, 1023ms total)
T279C 005:759 JLINK_ReadMem (0x1FFFFD28, 0x0004 Bytes, ...) -- Read from C cache (4 bytes @ 0x1FFFFD28) - Data: 00 00 00 00  returns 0x00 (0000ms, 1023ms total)
T279C 005:759 JLINK_ReadMem (0x1FFFFD14, 0x0004 Bytes, ...) -- Read from C cache (4 bytes @ 0x1FFFFD14) - Data: 00 00 00 00  returns 0x00 (0000ms, 1023ms total)
T279C 005:759 JLINK_ReadMem (0x1FFFFD10, 0x0004 Bytes, ...) -- Read from C cache (4 bytes @ 0x1FFFFD10) - Data: 00 00 80 3F  returns 0x00 (0000ms, 1023ms total)
T279C 005:759 JLINK_ReadMem (0x1FFFFD0C, 0x0004 Bytes, ...) -- Read from C cache (4 bytes @ 0x1FFFFD0C) - Data: 00 00 80 7F  returns 0x00 (0000ms, 1023ms total)
T279C 005:759 JLINK_ReadMem (0x1FFFFD08, 0x0004 Bytes, ...) -- Read from C cache (4 bytes @ 0x1FFFFD08) - Data: 46 B1 17 3F  returns 0x00 (0000ms, 1023ms total)
T279C 005:759 JLINK_ReadMem (0x1FFFFD04, 0x0004 Bytes, ...) -- Read from C cache (4 bytes @ 0x1FFFFD04) - Data: B2 C5 86 3F  returns 0x00 (0000ms, 1023ms total)
T279C 005:759 JLINK_ReadMem (0x1FFFFD00, 0x0004 Bytes, ...) -- Read from C cache (4 bytes @ 0x1FFFFD00) - Data: 55 9F 8D 3F  returns 0x00 (0000ms, 1023ms total)
T279C 005:759 JLINK_ReadMem (0x00000000, 0x0004 Bytes, ...) -- CPU_ReadMem(64 bytes @ 0x00000000) -- Updating C cache (64 bytes @ 0x00000000) -- Read from C cache (4 bytes @ 0x00000000) - Data: 30 FD FF 1F  returns 0x00 (0002ms, 1025ms total)
T2BD0 007:120 JLINK_Step() -- CPU_ReadMem(64 bytes @ 0x00000900) -- Updating C cache (64 bytes @ 0x00000900) -- Read from C cache (2 bytes @ 0x00000906) -- CPU_ReadMem(4 bytes @ 0xE0001004) -- Simulated  returns 0x00 (0004ms, 1029ms total)
T2BD0 007:124 JLINK_ReadReg(R15 (PC))  returns 0x00000908 (0000ms, 1029ms total)
T2BD0 007:124 JLINK_ReadReg(XPSR)  returns 0x01000000 (0000ms, 1029ms total)
T2BD0 007:125 JLINK_SetBPEx(Addr = 0x00000906, Type = 0xFFFFFFF2)  returns 0x00000005 (0000ms, 1030ms total)
T2BD0 007:125 JLINK_Go() -- CPU_WriteMem(4 bytes @ 0xE0002000) -- CPU_ReadMem(4 bytes @ 0xE0001000) -- CPU_WriteMem(4 bytes @ 0xE0001000) -- CPU_WriteMem(4 bytes @ 0xE0001004) (0006ms, 1036ms total)
T2BD0 007:232 JLINK_IsHalted()  returns TRUE (0004ms, 1040ms total)
T2BD0 007:236 JLINK_Halt()  returns 0x00 (0000ms, 1036ms total)
T2BD0 007:236 JLINK_IsHalted()  returns TRUE (0000ms, 1036ms total)
T2BD0 007:236 JLINK_IsHalted()  returns TRUE (0000ms, 1036ms total)
T2BD0 007:236 JLINK_IsHalted()  returns TRUE (0000ms, 1036ms total)
T2BD0 007:236 JLINK_ReadReg(R15 (PC))  returns 0x00000906 (0000ms, 1036ms total)
T2BD0 007:236 JLINK_ReadReg(XPSR)  returns 0x81000000 (0000ms, 1036ms total)
T2BD0 007:236 JLINK_ClrBPEx(BPHandle = 0x00000005)  returns 0x00 (0000ms, 1036ms total)
T2BD0 007:236 JLINK_ReadMemU32(0xE000ED30, 0x0001 Items, ...) -- CPU_ReadMem(4 bytes @ 0xE000ED30) - Data: 03 00 00 00  returns 0x01 (0001ms, 1037ms total)
T2BD0 007:237 JLINK_ReadMemU32(0xE0001028, 0x0001 Items, ...) -- CPU_ReadMem(4 bytes @ 0xE0001028) - Data: 00 00 00 00  returns 0x01 (0001ms, 1038ms total)
T2BD0 007:238 JLINK_ReadMemU32(0xE0001038, 0x0001 Items, ...) -- CPU_ReadMem(4 bytes @ 0xE0001038) - Data: 00 00 00 00  returns 0x01 (0001ms, 1039ms total)
T2BD0 007:239 JLINK_ReadReg(R0)  returns 0x3F8B7935 (0000ms, 1039ms total)
T2BD0 007:239 JLINK_ReadReg(R1)  returns 0x3E51EB85 (0000ms, 1039ms total)
T2BD0 007:239 JLINK_ReadReg(R2)  returns 0x3FDBFBB5 (0000ms, 1039ms total)
T2BD0 007:239 JLINK_ReadReg(R3)  returns 0x00800000 (0000ms, 1039ms total)
T2BD0 007:239 JLINK_ReadReg(R4)  returns 0x40000000 (0000ms, 1039ms total)
T2BD0 007:239 JLINK_ReadReg(R5)  returns 0x3F552F72 (0000ms, 1039ms total)
T2BD0 007:239 JLINK_ReadReg(R6)  returns 0x4C341880 (0000ms, 1039ms total)
T2BD0 007:239 JLINK_ReadReg(R7)  returns 0x00000000 (0000ms, 1039ms total)
T2BD0 007:239 JLINK_ReadReg(R8)  returns 0x00000000 (0000ms, 1039ms total)
T2BD0 007:239 JLINK_ReadReg(R9)  returns 0x20000618 (0000ms, 1039ms total)
T2BD0 007:239 JLINK_ReadReg(R10)  returns 0x000030A8 (0000ms, 1039ms total)
T2BD0 007:239 JLINK_ReadReg(R11)  returns 0x000030A8 (0000ms, 1039ms total)
T2BD0 007:239 JLINK_ReadReg(R12)  returns 0x000003FE (0000ms, 1039ms total)
T2BD0 007:239 JLINK_ReadReg(R13 (SP))  returns 0x1FFFFCD0 (0000ms, 1039ms total)
T2BD0 007:239 JLINK_ReadReg(R14)  returns 0x000008FB (0000ms, 1039ms total)
T2BD0 007:239 JLINK_ReadReg(R15 (PC))  returns 0x00000906 (0000ms, 1039ms total)
T2BD0 007:239 JLINK_ReadReg(XPSR)  returns 0x81000000 (0000ms, 1039ms total)
T2BD0 007:239 JLINK_ReadReg(MSP)  returns 0x1FFFFCD0 (0000ms, 1039ms total)
T2BD0 007:239 JLINK_ReadReg(PSP)  returns 0x20000800 (0000ms, 1039ms total)
T2BD0 007:239 JLINK_ReadReg(CFBP)  returns 0x00000000 (0000ms, 1039ms total)
T279C 007:240 JLINK_ReadMem (0x1FFFFD2C, 0x0004 Bytes, ...) -- CPU_ReadMem(64 bytes @ 0x1FFFFD00) -- Updating C cache (64 bytes @ 0x1FFFFD00) -- Read from C cache (4 bytes @ 0x1FFFFD2C) - Data: F3 09 00 00  returns 0x00 (0001ms, 1040ms total)
T279C 007:241 JLINK_ReadMem (0x1FFFFD1C, 0x0004 Bytes, ...) -- Read from C cache (4 bytes @ 0x1FFFFD1C) - Data: D7 A3 00 00  returns 0x00 (0000ms, 1040ms total)
T279C 007:241 JLINK_ReadMem (0x1FFFFD20, 0x0004 Bytes, ...) -- Read from C cache (4 bytes @ 0x1FFFFD20) - Data: D0 F8 FF 1F  returns 0x00 (0000ms, 1040ms total)
T279C 007:241 JLINK_ReadMem (0x1FFFFD24, 0x0004 Bytes, ...) -- Read from C cache (4 bytes @ 0x1FFFFD24) - Data: 00 00 00 00  returns 0x00 (0000ms, 1040ms total)
T279C 007:241 JLINK_ReadMem (0x1FFFFD28, 0x0004 Bytes, ...) -- Read from C cache (4 bytes @ 0x1FFFFD28) - Data: 00 00 00 00  returns 0x00 (0000ms, 1040ms total)
T279C 007:241 JLINK_ReadMem (0x1FFFFD14, 0x0004 Bytes, ...) -- Read from C cache (4 bytes @ 0x1FFFFD14) - Data: 00 00 00 00  returns 0x00 (0000ms, 1040ms total)
T279C 007:241 JLINK_ReadMem (0x1FFFFD10, 0x0004 Bytes, ...) -- Read from C cache (4 bytes @ 0x1FFFFD10) - Data: 00 00 80 3F  returns 0x00 (0000ms, 1040ms total)
T279C 007:241 JLINK_ReadMem (0x1FFFFD0C, 0x0004 Bytes, ...) -- Read from C cache (4 bytes @ 0x1FFFFD0C) - Data: 00 00 80 7F  returns 0x00 (0001ms, 1041ms total)
T279C 007:242 JLINK_ReadMem (0x1FFFFD08, 0x0004 Bytes, ...) -- Read from C cache (4 bytes @ 0x1FFFFD08) - Data: 72 2F 55 3F  returns 0x00 (0000ms, 1041ms total)
T279C 007:242 JLINK_ReadMem (0x1FFFFD04, 0x0004 Bytes, ...) -- Read from C cache (4 bytes @ 0x1FFFFD04) - Data: 35 79 8B 3F  returns 0x00 (0000ms, 1041ms total)
T279C 007:242 JLINK_ReadMem (0x1FFFFD00, 0x0004 Bytes, ...) -- Read from C cache (4 bytes @ 0x1FFFFD00) - Data: 76 10 9B 3F  returns 0x00 (0000ms, 1041ms total)
T279C 007:242 JLINK_ReadMem (0x00000000, 0x0004 Bytes, ...) -- CPU_ReadMem(64 bytes @ 0x00000000) -- Updating C cache (64 bytes @ 0x00000000) -- Read from C cache (4 bytes @ 0x00000000) - Data: 30 FD FF 1F  returns 0x00 (0001ms, 1042ms total)
T2BD0 007:840 JLINK_Step() -- CPU_ReadMem(64 bytes @ 0x00000900) -- Updating C cache (64 bytes @ 0x00000900) -- Read from C cache (2 bytes @ 0x00000906) -- CPU_ReadMem(4 bytes @ 0xE0001004) -- Simulated  returns 0x00 (0003ms, 1045ms total)
T2BD0 007:843 JLINK_ReadReg(R15 (PC))  returns 0x00000908 (0000ms, 1045ms total)
T2BD0 007:843 JLINK_ReadReg(XPSR)  returns 0x01000000 (0000ms, 1045ms total)
T2BD0 007:843 JLINK_SetBPEx(Addr = 0x00000906, Type = 0xFFFFFFF2)  returns 0x00000006 (0000ms, 1045ms total)
T2BD0 007:843 JLINK_Go() -- CPU_WriteMem(4 bytes @ 0xE0002000) -- CPU_ReadMem(4 bytes @ 0xE0001000) -- CPU_WriteMem(4 bytes @ 0xE0001000) -- CPU_WriteMem(4 bytes @ 0xE0001004) (0006ms, 1051ms total)
T2BD0 007:949 JLINK_IsHalted()  returns TRUE (0004ms, 1055ms total)
T2BD0 007:953 JLINK_Halt()  returns 0x00 (0000ms, 1051ms total)
T2BD0 007:953 JLINK_IsHalted()  returns TRUE (0000ms, 1051ms total)
T2BD0 007:953 JLINK_IsHalted()  returns TRUE (0000ms, 1051ms total)
T2BD0 007:953 JLINK_IsHalted()  returns TRUE (0000ms, 1051ms total)
T2BD0 007:953 JLINK_ReadReg(R15 (PC))  returns 0x00000906 (0001ms, 1052ms total)
T2BD0 007:954 JLINK_ReadReg(XPSR)  returns 0x81000000 (0000ms, 1052ms total)
T2BD0 007:954 JLINK_ClrBPEx(BPHandle = 0x00000006)  returns 0x00 (0000ms, 1052ms total)
T2BD0 007:954 JLINK_ReadMemU32(0xE000ED30, 0x0001 Items, ...) -- CPU_ReadMem(4 bytes @ 0xE000ED30) - Data: 03 00 00 00  returns 0x01 (0001ms, 1053ms total)
T2BD0 007:955 JLINK_ReadMemU32(0xE0001028, 0x0001 Items, ...) -- CPU_ReadMem(4 bytes @ 0xE0001028) - Data: 00 00 00 00  returns 0x01 (0000ms, 1053ms total)
T2BD0 007:955 JLINK_ReadMemU32(0xE0001038, 0x0001 Items, ...) -- CPU_ReadMem(4 bytes @ 0xE0001038) - Data: 00 00 00 00  returns 0x01 (0001ms, 1054ms total)
T2BD0 007:956 JLINK_ReadReg(R0)  returns 0x3F6C657B (0000ms, 1054ms total)
T2BD0 007:956 JLINK_ReadReg(R1)  returns 0x3E51EB85 (0000ms, 1054ms total)
T2BD0 007:956 JLINK_ReadReg(R2)  returns 0x3F7DEFFF (0000ms, 1054ms total)
T2BD0 007:956 JLINK_ReadReg(R3)  returns 0x00800000 (0000ms, 1054ms total)
T2BD0 007:956 JLINK_ReadReg(R4)  returns 0xA0000000 (0001ms, 1055ms total)
T2BD0 007:957 JLINK_ReadReg(R5)  returns 0x3F8C2F9E (0000ms, 1055ms total)
T2BD0 007:957 JLINK_ReadReg(R6)  returns 0x032EFA40 (0000ms, 1055ms total)
T2BD0 007:957 JLINK_ReadReg(R7)  returns 0x00000000 (0000ms, 1055ms total)
T2BD0 007:957 JLINK_ReadReg(R8)  returns 0x00000000 (0000ms, 1055ms total)
T2BD0 007:957 JLINK_ReadReg(R9)  returns 0x20000618 (0000ms, 1055ms total)
T2BD0 007:957 JLINK_ReadReg(R10)  returns 0x000030A8 (0000ms, 1055ms total)
T2BD0 007:957 JLINK_ReadReg(R11)  returns 0x000030A8 (0000ms, 1055ms total)
T2BD0 007:957 JLINK_ReadReg(R12)  returns 0x000003FE (0000ms, 1055ms total)
T2BD0 007:957 JLINK_ReadReg(R13 (SP))  returns 0x1FFFFCD0 (0000ms, 1055ms total)
T2BD0 007:957 JLINK_ReadReg(R14)  returns 0x000008FB (0000ms, 1055ms total)
T2BD0 007:957 JLINK_ReadReg(R15 (PC))  returns 0x00000906 (0000ms, 1055ms total)
T2BD0 007:957 JLINK_ReadReg(XPSR)  returns 0x81000000 (0000ms, 1055ms total)
T2BD0 007:957 JLINK_ReadReg(MSP)  returns 0x1FFFFCD0 (0000ms, 1055ms total)
T2BD0 007:957 JLINK_ReadReg(PSP)  returns 0x20000800 (0000ms, 1055ms total)
T2BD0 007:957 JLINK_ReadReg(CFBP)  returns 0x00000000 (0000ms, 1055ms total)
T279C 007:957 JLINK_ReadMem (0x1FFFFD2C, 0x0004 Bytes, ...) -- CPU_ReadMem(64 bytes @ 0x1FFFFD00) -- Updating C cache (64 bytes @ 0x1FFFFD00) -- Read from C cache (4 bytes @ 0x1FFFFD2C) - Data: F3 09 00 00  returns 0x00 (0002ms, 1057ms total)
T279C 007:959 JLINK_ReadMem (0x1FFFFD1C, 0x0004 Bytes, ...) -- Read from C cache (4 bytes @ 0x1FFFFD1C) - Data: D7 A3 00 00  returns 0x00 (0000ms, 1057ms total)
T279C 007:959 JLINK_ReadMem (0x1FFFFD20, 0x0004 Bytes, ...) -- Read from C cache (4 bytes @ 0x1FFFFD20) - Data: D0 F8 FF 1F  returns 0x00 (0000ms, 1057ms total)
T279C 007:959 JLINK_ReadMem (0x1FFFFD24, 0x0004 Bytes, ...) -- Read from C cache (4 bytes @ 0x1FFFFD24) - Data: 00 00 00 00  returns 0x00 (0000ms, 1057ms total)
T279C 007:959 JLINK_ReadMem (0x1FFFFD28, 0x0004 Bytes, ...) -- Read from C cache (4 bytes @ 0x1FFFFD28) - Data: 00 00 00 00  returns 0x00 (0000ms, 1057ms total)
T279C 007:959 JLINK_ReadMem (0x1FFFFD14, 0x0004 Bytes, ...) -- Read from C cache (4 bytes @ 0x1FFFFD14) - Data: 00 00 00 00  returns 0x00 (0000ms, 1057ms total)
T279C 007:959 JLINK_ReadMem (0x1FFFFD10, 0x0004 Bytes, ...) -- Read from C cache (4 bytes @ 0x1FFFFD10) - Data: 00 00 80 3F  returns 0x00 (0000ms, 1057ms total)
T279C 007:959 JLINK_ReadMem (0x1FFFFD0C, 0x0004 Bytes, ...) -- Read from C cache (4 bytes @ 0x1FFFFD0C) - Data: 00 00 80 7F  returns 0x00 (0000ms, 1057ms total)
T279C 007:959 JLINK_ReadMem (0x1FFFFD08, 0x0004 Bytes, ...) -- Read from C cache (4 bytes @ 0x1FFFFD08) - Data: 9E 2F 8C 3F  returns 0x00 (0001ms, 1058ms total)
T279C 007:960 JLINK_ReadMem (0x1FFFFD04, 0x0004 Bytes, ...) -- Read from C cache (4 bytes @ 0x1FFFFD04) - Data: 7B 65 6C 3F  returns 0x00 (0000ms, 1058ms total)
T279C 007:960 JLINK_ReadMem (0x1FFFFD00, 0x0004 Bytes, ...) -- Read from C cache (4 bytes @ 0x1FFFFD00) - Data: 19 0E 90 3F  returns 0x00 (0000ms, 1058ms total)
T279C 007:960 JLINK_ReadMem (0x00000000, 0x0004 Bytes, ...) -- CPU_ReadMem(64 bytes @ 0x00000000) -- Updating C cache (64 bytes @ 0x00000000) -- Read from C cache (4 bytes @ 0x00000000) - Data: 30 FD FF 1F  returns 0x00 (0001ms, 1059ms total)
T2BD0 008:471 JLINK_Step() -- CPU_ReadMem(64 bytes @ 0x00000900) -- Updating C cache (64 bytes @ 0x00000900) -- Read from C cache (2 bytes @ 0x00000906) -- CPU_ReadMem(4 bytes @ 0xE0001004) -- Simulated  returns 0x00 (0004ms, 1063ms total)
T2BD0 008:475 JLINK_ReadReg(R15 (PC))  returns 0x00000908 (0000ms, 1063ms total)
T2BD0 008:475 JLINK_ReadReg(XPSR)  returns 0x01000000 (0000ms, 1063ms total)
T2BD0 008:475 JLINK_SetBPEx(Addr = 0x00000906, Type = 0xFFFFFFF2)  returns 0x00000007 (0000ms, 1063ms total)
T2BD0 008:475 JLINK_Go() -- CPU_WriteMem(4 bytes @ 0xE0002000) -- CPU_ReadMem(4 bytes @ 0xE0001000) -- CPU_WriteMem(4 bytes @ 0xE0001000) -- CPU_WriteMem(4 bytes @ 0xE0001004) (0006ms, 1069ms total)
T2BD0 008:582 JLINK_IsHalted()  returns TRUE (0004ms, 1073ms total)
T2BD0 008:586 JLINK_Halt()  returns 0x00 (0000ms, 1069ms total)
T2BD0 008:586 JLINK_IsHalted()  returns TRUE (0000ms, 1069ms total)
T2BD0 008:586 JLINK_IsHalted()  returns TRUE (0000ms, 1069ms total)
T2BD0 008:586 JLINK_IsHalted()  returns TRUE (0001ms, 1070ms total)
T2BD0 008:587 JLINK_ReadReg(R15 (PC))  returns 0x00000906 (0000ms, 1069ms total)
T2BD0 008:587 JLINK_ReadReg(XPSR)  returns 0x81000000 (0000ms, 1069ms total)
T2BD0 008:587 JLINK_ClrBPEx(BPHandle = 0x00000007)  returns 0x00 (0000ms, 1069ms total)
T2BD0 008:587 JLINK_ReadMemU32(0xE000ED30, 0x0001 Items, ...) -- CPU_ReadMem(4 bytes @ 0xE000ED30) - Data: 03 00 00 00  returns 0x01 (0001ms, 1070ms total)
T2BD0 008:588 JLINK_ReadMemU32(0xE0001028, 0x0001 Items, ...) -- CPU_ReadMem(4 bytes @ 0xE0001028) - Data: 00 00 00 00  returns 0x01 (0001ms, 1071ms total)
T2BD0 008:589 JLINK_ReadMemU32(0xE0001038, 0x0001 Items, ...) -- CPU_ReadMem(4 bytes @ 0xE0001038) - Data: 00 00 00 00  returns 0x01 (0001ms, 1072ms total)
T2BD0 008:590 JLINK_ReadReg(R0)  returns 0x3E9E1DA9 (0000ms, 1072ms total)
T2BD0 008:590 JLINK_ReadReg(R1)  returns 0x3E51EB85 (0000ms, 1072ms total)
T2BD0 008:590 JLINK_ReadReg(R2)  returns 0x3EDFFFAD (0000ms, 1072ms total)
T2BD0 008:590 JLINK_ReadReg(R3)  returns 0x00800000 (0000ms, 1072ms total)
T2BD0 008:590 JLINK_ReadReg(R4)  returns 0xE0000000 (0000ms, 1072ms total)
T2BD0 008:590 JLINK_ReadReg(R5)  returns 0x3FAEE519 (0000ms, 1072ms total)
T2BD0 008:590 JLINK_ReadReg(R6)  returns 0x301E5E20 (0000ms, 1072ms total)
T2BD0 008:590 JLINK_ReadReg(R7)  returns 0x00000000 (0000ms, 1072ms total)
T2BD0 008:590 JLINK_ReadReg(R8)  returns 0x00000000 (0000ms, 1072ms total)
T2BD0 008:590 JLINK_ReadReg(R9)  returns 0x20000618 (0000ms, 1072ms total)
T2BD0 008:590 JLINK_ReadReg(R10)  returns 0x000030A8 (0000ms, 1072ms total)
T2BD0 008:591 JLINK_ReadReg(R11)  returns 0x000030A8 (0000ms, 1073ms total)
T2BD0 008:591 JLINK_ReadReg(R12)  returns 0x000003FD (0000ms, 1073ms total)
T2BD0 008:591 JLINK_ReadReg(R13 (SP))  returns 0x1FFFFCD0 (0000ms, 1073ms total)
T2BD0 008:591 JLINK_ReadReg(R14)  returns 0x000008FB (0000ms, 1073ms total)
T2BD0 008:591 JLINK_ReadReg(R15 (PC))  returns 0x00000906 (0000ms, 1073ms total)
T2BD0 008:591 JLINK_ReadReg(XPSR)  returns 0x81000000 (0000ms, 1073ms total)
T2BD0 008:591 JLINK_ReadReg(MSP)  returns 0x1FFFFCD0 (0000ms, 1073ms total)
T2BD0 008:591 JLINK_ReadReg(PSP)  returns 0x20000800 (0000ms, 1073ms total)
T2BD0 008:591 JLINK_ReadReg(CFBP)  returns 0x00000000 (0000ms, 1073ms total)
T279C 008:596 JLINK_ReadMem (0x1FFFFD2C, 0x0004 Bytes, ...) -- CPU_ReadMem(64 bytes @ 0x1FFFFD00) -- Updating C cache (64 bytes @ 0x1FFFFD00) -- Read from C cache (4 bytes @ 0x1FFFFD2C) - Data: F3 09 00 00  returns 0x00 (0002ms, 1075ms total)
T279C 008:598 JLINK_ReadMem (0x1FFFFD1C, 0x0004 Bytes, ...) -- Read from C cache (4 bytes @ 0x1FFFFD1C) - Data: D7 A3 00 00  returns 0x00 (0000ms, 1075ms total)
T279C 008:598 JLINK_ReadMem (0x1FFFFD20, 0x0004 Bytes, ...) -- Read from C cache (4 bytes @ 0x1FFFFD20) - Data: D0 F8 FF 1F  returns 0x00 (0000ms, 1075ms total)
T279C 008:598 JLINK_ReadMem (0x1FFFFD24, 0x0004 Bytes, ...) -- Read from C cache (4 bytes @ 0x1FFFFD24) - Data: 00 00 00 00  returns 0x00 (0000ms, 1075ms total)
T279C 008:598 JLINK_ReadMem (0x1FFFFD28, 0x0004 Bytes, ...) -- Read from C cache (4 bytes @ 0x1FFFFD28) - Data: 00 00 00 00  returns 0x00 (0000ms, 1075ms total)
T279C 008:598 JLINK_ReadMem (0x1FFFFD14, 0x0004 Bytes, ...) -- Read from C cache (4 bytes @ 0x1FFFFD14) - Data: 00 00 00 00  returns 0x00 (0000ms, 1075ms total)
T279C 008:598 JLINK_ReadMem (0x1FFFFD10, 0x0004 Bytes, ...) -- Read from C cache (4 bytes @ 0x1FFFFD10) - Data: 00 00 80 3F  returns 0x00 (0000ms, 1075ms total)
T279C 008:598 JLINK_ReadMem (0x1FFFFD0C, 0x0004 Bytes, ...) -- Read from C cache (4 bytes @ 0x1FFFFD0C) - Data: 00 00 80 7F  returns 0x00 (0000ms, 1075ms total)
T279C 008:598 JLINK_ReadMem (0x1FFFFD08, 0x0004 Bytes, ...) -- Read from C cache (4 bytes @ 0x1FFFFD08) - Data: 19 E5 AE 3F  returns 0x00 (0000ms, 1075ms total)
T279C 008:599 JLINK_ReadMem (0x1FFFFD04, 0x0004 Bytes, ...) -- Read from C cache (4 bytes @ 0x1FFFFD04) - Data: A9 1D 9E 3E  returns 0x00 (0000ms, 1076ms total)
T279C 008:599 JLINK_ReadMem (0x1FFFFD00, 0x0004 Bytes, ...) -- Read from C cache (4 bytes @ 0x1FFFFD00) - Data: E4 16 49 3F  returns 0x00 (0000ms, 1076ms total)
T279C 008:599 JLINK_ReadMem (0x00000000, 0x0004 Bytes, ...) -- CPU_ReadMem(64 bytes @ 0x00000000) -- Updating C cache (64 bytes @ 0x00000000) -- Read from C cache (4 bytes @ 0x00000000) - Data: 30 FD FF 1F  returns 0x00 (0002ms, 1078ms total)
T2BD0 009:143 JLINK_Step() -- CPU_ReadMem(64 bytes @ 0x00000900) -- Updating C cache (64 bytes @ 0x00000900) -- Read from C cache (2 bytes @ 0x00000906) -- CPU_ReadMem(4 bytes @ 0xE0001004) -- Simulated  returns 0x00 (0004ms, 1082ms total)
T2BD0 009:147 JLINK_ReadReg(R15 (PC))  returns 0x00000908 (0000ms, 1082ms total)
T2BD0 009:147 JLINK_ReadReg(XPSR)  returns 0x01000000 (0000ms, 1082ms total)
T2BD0 009:147 JLINK_SetBPEx(Addr = 0x00000906, Type = 0xFFFFFFF2)  returns 0x00000008 (0000ms, 1082ms total)
T2BD0 009:147 JLINK_Go() -- CPU_WriteMem(4 bytes @ 0xE0002000) -- CPU_ReadMem(4 bytes @ 0xE0001000) -- CPU_WriteMem(4 bytes @ 0xE0001000) -- CPU_WriteMem(4 bytes @ 0xE0001004) (0006ms, 1088ms total)
T2BD0 009:254 JLINK_IsHalted()  returns TRUE (0004ms, 1092ms total)
T2BD0 009:258 JLINK_Halt()  returns 0x00 (0000ms, 1088ms total)
T2BD0 009:258 JLINK_IsHalted()  returns TRUE (0000ms, 1088ms total)
T2BD0 009:258 JLINK_IsHalted()  returns TRUE (0000ms, 1088ms total)
T2BD0 009:258 JLINK_IsHalted()  returns TRUE (0000ms, 1088ms total)
T2BD0 009:258 JLINK_ReadReg(R15 (PC))  returns 0x00000906 (0000ms, 1088ms total)
T2BD0 009:258 JLINK_ReadReg(XPSR)  returns 0x81000000 (0000ms, 1088ms total)
T2BD0 009:258 JLINK_ClrBPEx(BPHandle = 0x00000008)  returns 0x00 (0000ms, 1088ms total)
T2BD0 009:258 JLINK_ReadMemU32(0xE000ED30, 0x0001 Items, ...) -- CPU_ReadMem(4 bytes @ 0xE000ED30) - Data: 03 00 00 00  returns 0x01 (0001ms, 1089ms total)
T2BD0 009:259 JLINK_ReadMemU32(0xE0001028, 0x0001 Items, ...) -- CPU_ReadMem(4 bytes @ 0xE0001028) - Data: 00 00 00 00  returns 0x01 (0001ms, 1090ms total)
T2BD0 009:260 JLINK_ReadMemU32(0xE0001038, 0x0001 Items, ...) -- CPU_ReadMem(4 bytes @ 0xE0001038) - Data: 00 00 00 00  returns 0x01 (0001ms, 1091ms total)
T2BD0 009:261 JLINK_ReadReg(R0)  returns 0x3E822632 (0000ms, 1091ms total)
T2BD0 009:261 JLINK_ReadReg(R1)  returns 0x3E51EB85 (0000ms, 1091ms total)
T2BD0 009:261 JLINK_ReadReg(R2)  returns 0x3ED3EFB7 (0000ms, 1091ms total)
T2BD0 009:261 JLINK_ReadReg(R3)  returns 0x00800000 (0000ms, 1091ms total)
T2BD0 009:261 JLINK_ReadReg(R4)  returns 0xA0000000 (0000ms, 1091ms total)
T2BD0 009:261 JLINK_ReadReg(R5)  returns 0x3FA49BCD (0000ms, 1091ms total)
T2BD0 009:261 JLINK_ReadReg(R6)  returns 0xC773F320 (0000ms, 1091ms total)
T2BD0 009:261 JLINK_ReadReg(R7)  returns 0x00000000 (0000ms, 1091ms total)
T2BD0 009:261 JLINK_ReadReg(R8)  returns 0x00000000 (0000ms, 1091ms total)
T2BD0 009:261 JLINK_ReadReg(R9)  returns 0x20000618 (0000ms, 1091ms total)
T2BD0 009:261 JLINK_ReadReg(R10)  returns 0x000030A8 (0000ms, 1091ms total)
T2BD0 009:261 JLINK_ReadReg(R11)  returns 0x000030A8 (0000ms, 1091ms total)
T2BD0 009:261 JLINK_ReadReg(R12)  returns 0x000003FD (0000ms, 1091ms total)
T2BD0 009:261 JLINK_ReadReg(R13 (SP))  returns 0x1FFFFCD0 (0001ms, 1092ms total)
T2BD0 009:262 JLINK_ReadReg(R14)  returns 0x000008FB (0000ms, 1092ms total)
T2BD0 009:262 JLINK_ReadReg(R15 (PC))  returns 0x00000906 (0000ms, 1092ms total)
T2BD0 009:262 JLINK_ReadReg(XPSR)  returns 0x81000000 (0000ms, 1092ms total)
T2BD0 009:262 JLINK_ReadReg(MSP)  returns 0x1FFFFCD0 (0000ms, 1092ms total)
T2BD0 009:262 JLINK_ReadReg(PSP)  returns 0x20000800 (0000ms, 1092ms total)
T2BD0 009:262 JLINK_ReadReg(CFBP)  returns 0x00000000 (0000ms, 1092ms total)
T279C 009:262 JLINK_ReadMem (0x1FFFFD2C, 0x0004 Bytes, ...) -- CPU_ReadMem(64 bytes @ 0x1FFFFD00) -- Updating C cache (64 bytes @ 0x1FFFFD00) -- Read from C cache (4 bytes @ 0x1FFFFD2C) - Data: F3 09 00 00  returns 0x00 (0002ms, 1094ms total)
T279C 009:264 JLINK_ReadMem (0x1FFFFD1C, 0x0004 Bytes, ...) -- Read from C cache (4 bytes @ 0x1FFFFD1C) - Data: D7 A3 00 00  returns 0x00 (0000ms, 1094ms total)
T279C 009:264 JLINK_ReadMem (0x1FFFFD20, 0x0004 Bytes, ...) -- Read from C cache (4 bytes @ 0x1FFFFD20) - Data: D0 F8 FF 1F  returns 0x00 (0000ms, 1094ms total)
T279C 009:264 JLINK_ReadMem (0x1FFFFD24, 0x0004 Bytes, ...) -- Read from C cache (4 bytes @ 0x1FFFFD24) - Data: 00 00 00 00  returns 0x00 (0000ms, 1094ms total)
T279C 009:264 JLINK_ReadMem (0x1FFFFD28, 0x0004 Bytes, ...) -- Read from C cache (4 bytes @ 0x1FFFFD28) - Data: 00 00 00 00  returns 0x00 (0000ms, 1094ms total)
T279C 009:264 JLINK_ReadMem (0x1FFFFD14, 0x0004 Bytes, ...) -- Read from C cache (4 bytes @ 0x1FFFFD14) - Data: 00 00 00 00  returns 0x00 (0000ms, 1094ms total)
T279C 009:264 JLINK_ReadMem (0x1FFFFD10, 0x0004 Bytes, ...) -- Read from C cache (4 bytes @ 0x1FFFFD10) - Data: 00 00 80 3F  returns 0x00 (0000ms, 1094ms total)
T279C 009:264 JLINK_ReadMem (0x1FFFFD0C, 0x0004 Bytes, ...) -- Read from C cache (4 bytes @ 0x1FFFFD0C) - Data: E6 55 8A 40  returns 0x00 (0001ms, 1095ms total)
T279C 009:265 JLINK_ReadMem (0x1FFFFD08, 0x0004 Bytes, ...) -- Read from C cache (4 bytes @ 0x1FFFFD08) - Data: E8 0F 7D 3F  returns 0x00 (0000ms, 1095ms total)
T279C 009:265 JLINK_ReadMem (0x1FFFFD04, 0x0004 Bytes, ...) -- Read from C cache (4 bytes @ 0x1FFFFD04) - Data: 32 26 82 3E  returns 0x00 (0000ms, 1095ms total)
T279C 009:265 JLINK_ReadMem (0x1FFFFD00, 0x0004 Bytes, ...) -- Read from C cache (4 bytes @ 0x1FFFFD00) - Data: 18 25 40 3F  returns 0x00 (0000ms, 1095ms total)
T279C 009:265 JLINK_ReadMem (0x00000000, 0x0004 Bytes, ...) -- CPU_ReadMem(64 bytes @ 0x00000000) -- Updating C cache (64 bytes @ 0x00000000) -- Read from C cache (4 bytes @ 0x00000000) - Data: 30 FD FF 1F  returns 0x00 (0001ms, 1096ms total)
T2BD0 009:803 JLINK_Step() -- CPU_ReadMem(64 bytes @ 0x00000900) -- Updating C cache (64 bytes @ 0x00000900) -- Read from C cache (2 bytes @ 0x00000906) -- CPU_ReadMem(4 bytes @ 0xE0001004) -- Simulated  returns 0x00 (0004ms, 1100ms total)
T2BD0 009:807 JLINK_ReadReg(R15 (PC))  returns 0x00000908 (0000ms, 1100ms total)
T2BD0 009:807 JLINK_ReadReg(XPSR)  returns 0x01000000 (0000ms, 1100ms total)
T2BD0 009:807 JLINK_SetBPEx(Addr = 0x00000906, Type = 0xFFFFFFF2)  returns 0x00000009 (0000ms, 1100ms total)
T2BD0 009:807 JLINK_Go() -- CPU_WriteMem(4 bytes @ 0xE0002000) -- CPU_ReadMem(4 bytes @ 0xE0001000) -- CPU_WriteMem(4 bytes @ 0xE0001000) -- CPU_WriteMem(4 bytes @ 0xE0001004) (0006ms, 1106ms total)
T2BD0 009:914 JLINK_IsHalted()  returns TRUE (0004ms, 1110ms total)
T2BD0 009:918 JLINK_Halt()  returns 0x00 (0000ms, 1106ms total)
T2BD0 009:918 JLINK_IsHalted()  returns TRUE (0000ms, 1106ms total)
T2BD0 009:918 JLINK_IsHalted()  returns TRUE (0000ms, 1106ms total)
T2BD0 009:918 JLINK_IsHalted()  returns TRUE (0000ms, 1106ms total)
T2BD0 009:918 JLINK_ReadReg(R15 (PC))  returns 0x00000906 (0000ms, 1106ms total)
T2BD0 009:918 JLINK_ReadReg(XPSR)  returns 0x81000000 (0000ms, 1106ms total)
T2BD0 009:918 JLINK_ClrBPEx(BPHandle = 0x00000009)  returns 0x00 (0000ms, 1106ms total)
T2BD0 009:918 JLINK_ReadMemU32(0xE000ED30, 0x0001 Items, ...) -- CPU_ReadMem(4 bytes @ 0xE000ED30) - Data: 03 00 00 00  returns 0x01 (0001ms, 1107ms total)
T2BD0 009:919 JLINK_ReadMemU32(0xE0001028, 0x0001 Items, ...) -- CPU_ReadMem(4 bytes @ 0xE0001028) - Data: 00 00 00 00  returns 0x01 (0001ms, 1108ms total)
T2BD0 009:920 JLINK_ReadMemU32(0xE0001038, 0x0001 Items, ...) -- CPU_ReadMem(4 bytes @ 0xE0001038) - Data: 00 00 00 00  returns 0x01 (0001ms, 1109ms total)
T2BD0 009:921 JLINK_ReadReg(R0)  returns 0x3E75EEF9 (0000ms, 1109ms total)
T2BD0 009:921 JLINK_ReadReg(R1)  returns 0x3E51EB85 (0000ms, 1109ms total)
T2BD0 009:921 JLINK_ReadReg(R2)  returns 0x3E75EFFD (0000ms, 1109ms total)
T2BD0 009:921 JLINK_ReadReg(R3)  returns 0x00800000 (0000ms, 1109ms total)
T2BD0 009:921 JLINK_ReadReg(R4)  returns 0x80000000 (0000ms, 1109ms total)
T2BD0 009:921 JLINK_ReadReg(R5)  returns 0x3F92666D (0000ms, 1109ms total)
T2BD0 009:921 JLINK_ReadReg(R6)  returns 0x8B076400 (0000ms, 1109ms total)
T2BD0 009:921 JLINK_ReadReg(R7)  returns 0x00000000 (0000ms, 1109ms total)
T2BD0 009:921 JLINK_ReadReg(R8)  returns 0x00000000 (0000ms, 1109ms total)
T2BD0 009:921 JLINK_ReadReg(R9)  returns 0x20000618 (0000ms, 1109ms total)
T2BD0 009:921 JLINK_ReadReg(R10)  returns 0x000030A8 (0000ms, 1109ms total)
T2BD0 009:921 JLINK_ReadReg(R11)  returns 0x000030A8 (0000ms, 1109ms total)
